
T3858 000:977 SEGGER J-Link V4.40b Log File (0001ms, 0976ms total)
T3858 000:977 DLL Compiled: Dec 22 2011 10:54:45 (0001ms, 0976ms total)
T3858 000:977 Logging started @ 2023-12-01 14:08 (0001ms, 0976ms total)
T3858 000:978 JLINK_SetWarnOutHandler(...) (0000ms, 0977ms total)
T3858 000:978 JLINK_OpenEx(...)
Firmware: J-Link V9 compiled May  7 2021 16:26:12
Hardware: V9.60
S/N: 69663570
Feature(s): RDI, GDB, FlashDL, FlashBP, JFlash  returns O.K. (0177ms, 0977ms total)
T3858 001:155 JLINK_SetErrorOutHandler(...) (0000ms, 1154ms total)
T3858 001:155 JLINK_ExecCommand("ProjectFile = "D:\Desktop\hjl\01-BMC-CODE-V6.0-FOR-LS\MDK\JLinkSettings.ini"", ...)  returns 0x00 (0001ms, 1154ms total)
T3858 001:164 JLINK_ExecCommand("Device = GD32F450ZK", ...)  returns 0x00 (0000ms, 1155ms total)
T3858 001:165 JLINK_ExecCommand("DisableConnectionTimeout", ...)  returns 0x00 (0000ms, 1156ms total)
T3858 001:165 JLINK_GetHardwareVersion()  returns 0x17700 (0000ms, 1156ms total)
T3858 001:165 JLINK_GetDLLVersion()  returns 44002 (0000ms, 1156ms total)
T3858 001:165 JLINK_GetFirmwareString(...) (0000ms, 1156ms total)
T3858 001:171 JLINK_GetDLLVersion()  returns 44002 (0000ms, 1156ms total)
T3858 001:171 JLINK_GetCompileDateTime() (0000ms, 1156ms total)
T3858 001:173 JLINK_GetFirmwareString(...) (0000ms, 1156ms total)
T3858 001:175 JLINK_GetHardwareVersion()  returns 0x17700 (0000ms, 1156ms total)
T3858 001:181 JLINK_TIF_Select(JLINKARM_TIF_SWD)  returns 0x00 (0002ms, 1156ms total)
T3858 001:183 JLINK_SetSpeed(500) (0001ms, 1158ms total)
T3858 001:184 JLINK_GetId() >0x108 TIF>Found SWD-DP with ID 0x2BA01477 >0x33 TIF> >0x33 TIF> >0x35 TIF> >0x33 TIF> >0x35 TIF> >0x33 TIF> >0x33 TIF> >0x35 TIF> >0x33 TIF> >0x33 TIF> >0x35 TIF> >0x33 TIF> >0x33 TIF> >0x35 TIF> >0x33 TIF> >0x33 TIF> >0x35 TIF> >0x35 TIF> >0x35 TIF> >0x35 TIF> >0x35 TIF> >0x33 TIF> >0x33 TIF> >0x35 TIF> >0x33 TIF> >0x33 TIF> >0x33 TIF>TPIU fitted.ETM fitted. >0x35 TIF> >0x33 TIF> >0x33 TIF> >0x35 TIF> >0x33 TIF> >0x33 TIF>  FPUnit: 6 code (BP) slots and 2 literal slots
 >0x35 TIF> >0x33 TIF> >0x33 TIF> >0x35 TIF> >0x35 TIF> >0x35 TIF> >0x33 TIF> >0x33 TIF> >0x35 TIF> >0x33 TIF> >0x33 TIF> >0x35 TIF> >0x33 TIF> >0x33 TIF>Found Cortex-M4 r0p1, Little endian. >0x33 TIF>  returns 0x2BA01477 (0040ms, 1159ms total)
T3858 001:224 JLINK_GetDeviceFamily()  returns 14 (0000ms, 1199ms total)
T3858 001:225 JLINK_ReadMem (0xE00FFFF0, 0x0010 Bytes, ...) -- CPU is running -- CPU_ReadMem(16 bytes @ 0xE00FFFF0) -- Data:  0D 00 00 00 10 00 00 00 05 00 00 00 B1 00 00 00  returns 0x00 (0003ms, 1199ms total)
T3858 001:228 JLINK_ReadMem (0xE00FFFD0, 0x0020 Bytes, ...) -- CPU is running -- CPU_ReadMem(32 bytes @ 0xE00FFFD0) -- Data:  07 00 00 00 00 00 00 00 00 00 00 00 00 00 00 00 ...  returns 0x00 (0002ms, 1202ms total)
T3858 001:230 JLINK_ReadMem (0xE00FF000, 0x0018 Bytes, ...) -- CPU is running -- CPU_ReadMem(24 bytes @ 0xE00FF000) -- Data:  03 F0 F0 FF 03 20 F0 FF 03 30 F0 FF 03 10 F0 FF ...  returns 0x00 (0002ms, 1204ms total)
T3858 001:232 JLINK_ReadMemU32(0xE000ED00, 0x0001 Items, ...) -- CPU is running -- CPU_ReadMem(4 bytes @ 0xE000ED00) -- Data:  41 C2 0F 41  returns 0x01 (0001ms, 1206ms total)
T3858 001:233 JLINK_ReadMemU32(0xE000EF40, 0x0001 Items, ...) -- CPU is running -- CPU_ReadMem(4 bytes @ 0xE000EF40) -- Data:  21 00 11 10  returns 0x01 (0002ms, 1207ms total)
T3858 001:235 JLINK_ReadMemU32(0xE000EF44, 0x0001 Items, ...) -- CPU is running -- CPU_ReadMem(4 bytes @ 0xE000EF44) -- Data:  11 00 00 11  returns 0x01 (0001ms, 1209ms total)
T3858 001:236 JLINK_SetResetType(JLINKARM_RESET_TYPE_NORMAL)  returns JLINKARM_RESET_TYPE_NORMAL (0000ms, 1210ms total)
T3858 001:236 JLINK_Reset() >0x108 TIF>Found SWD-DP with ID 0x2BA01477 >0x33 TIF> >0x33 TIF> >0x35 TIF> >0x33 TIF> >0x35 TIF> >0x33 TIF> >0x33 TIF> >0x35 TIF> >0x33 TIF> >0x33 TIF> >0x35 TIF> >0x33 TIF> >0x33 TIF> >0x35 TIF> >0x33 TIF> >0x33 TIF> >0x35 TIF> >0x35 TIF> >0x35 TIF> >0x35 TIF> >0x35 TIF> >0x33 TIF> >0x33 TIF> >0x35 TIF> >0x33 TIF> >0x33 TIF> >0x33 TIF>TPIU fitted.ETM fitted. >0x35 TIF> >0x33 TIF> >0x33 TIF> >0x35 TIF> >0x33 TIF> >0x33 TIF>  FPUnit: 6 code (BP) slots and 2 literal slots
 >0x35 TIF> >0x33 TIF> >0x33 TIF> >0x35 TIF> >0x33 TIF> >0x33 TIF> >0x35 TIF> >0x33 TIF> >0x33 TIF> >0x35 TIF> >0x33 TIF> >0x33 TIF>Found Cortex-M4 r0p1, Little endian. -- CPU is running -- CPU_WriteMem(4 bytes @ 0xE000EDF0) -- CPU is running -- CPU_WriteMem(4 bytes @ 0xE000EDFC) >0x35 TIF> -- CPU is running -- CPU_WriteMem(4 bytes @ 0xE000ED0C) -- CPU is running -- CPU_ReadMem(4 bytes @ 0xE000EDF0) -- CPU is running -- CPU_ReadMem(4 bytes @ 0xE000EDF0) -- CPU is running
 -- CPU_WriteMem(4 bytes @ 0xE000EDF0) -- CPU is running -- CPU_WriteMem(4 bytes @ 0xE000EDFC) -- CPU is running -- CPU_ReadMem(4 bytes @ 0xE000EDF0) (0072ms, 1210ms total)
T3858 001:308 JLINK_Halt()  returns 0x00 (0000ms, 1282ms total)
T3858 001:308 JLINK_IsHalted()  returns TRUE (0000ms, 1282ms total)
T3858 001:308 JLINK_ReadMemU32(0xE000EDF0, 0x0001 Items, ...) -- CPU_ReadMem(4 bytes @ 0xE000EDF0) -- Data:  03 00 03 00  returns 0x01 (0003ms, 1282ms total)
T3858 001:311 JLINK_WriteU32(0xE000EDF0, 0xA05F0003) -- CPU_WriteMem(4 bytes @ 0xE000EDF0)  returns 0x00 (0001ms, 1285ms total)
T3858 001:312 JLINK_WriteU32(0xE000EDFC, 0x01000000) -- CPU_WriteMem(4 bytes @ 0xE000EDFC)  returns 0x00 (0002ms, 1286ms total)
T3858 001:320 JLINK_GetHWStatus(...)  returns 0x00 (0001ms, 1288ms total)
T3858 001:325 JLINK_GetNumBPUnits(Type = 0xFFFFFF00)  returns 0x06 (0000ms, 1289ms total)
T3858 001:325 JLINK_GetNumBPUnits(Type = 0xF0)  returns 0x2000 (0000ms, 1289ms total)
T3858 001:325 JLINK_GetNumWPUnits()  returns 0x04 (0000ms, 1289ms total)
T3858 001:333 JLINK_GetSpeed()  returns 0x1F4 (0000ms, 1289ms total)
T3858 001:335 JLINK_ReadMemU32(0xE000E004, 0x0001 Items, ...) -- CPU_ReadMem(4 bytes @ 0xE000E004) -- Data:  02 00 00 00  returns 0x01 (0002ms, 1289ms total)
T3858 001:337 JLINK_ReadMemU32(0xE000E004, 0x0001 Items, ...) -- CPU_ReadMem(4 bytes @ 0xE000E004) -- Data:  02 00 00 00  returns 0x01 (0001ms, 1291ms total)
T3858 001:338 JLINK_WriteMem(0xE0001000, 0x001C Bytes, ...) -- Data:  01 00 00 00 00 00 00 00 00 00 00 00 00 00 00 00 ... -- CPU_WriteMem(28 bytes @ 0xE0001000)  returns 0x1C (0002ms, 1292ms total)
T3858 001:340 JLINK_ReadMem (0xE0001000, 0x001C Bytes, ...) -- CPU_ReadMem(28 bytes @ 0xE0001000) -- Data:  01 00 00 40 00 00 00 00 00 00 00 00 00 00 00 00 ...  returns 0x00 (0002ms, 1294ms total)
T3858 001:342 JLINK_Halt()  returns 0x00 (0000ms, 1296ms total)
T3858 001:342 JLINK_IsHalted()  returns TRUE (0000ms, 1296ms total)
T3858 001:344 JLINK_WriteMem(0x20000000, 0x01D0 Bytes, ...) -- Data:  00 BE 0A E0 0D 78 2D 06 68 40 08 24 40 00 00 D3 ... -- CPU_WriteMem(464 bytes @ 0x20000000)  returns 0x1D0 (0014ms, 1296ms total)
T3858 001:358 JLINK_WriteReg(R0, 0x08000000)  returns 0x00 (0000ms, 1310ms total)
T3858 001:358 JLINK_WriteReg(R1, 0x00B71B00)  returns 0x00 (0000ms, 1310ms total)
T3858 001:358 JLINK_WriteReg(R2, 0x00000001)  returns 0x00 (0000ms, 1310ms total)
T3858 001:358 JLINK_WriteReg(R3, 0x00000000)  returns 0x00 (0000ms, 1310ms total)
T3858 001:358 JLINK_WriteReg(R4, 0x00000000)  returns 0x00 (0000ms, 1310ms total)
T3858 001:358 JLINK_WriteReg(R5, 0x00000000)  returns 0x00 (0000ms, 1310ms total)
T3858 001:358 JLINK_WriteReg(R6, 0x00000000)  returns 0x00 (0000ms, 1310ms total)
T3858 001:358 JLINK_WriteReg(R7, 0x00000000)  returns 0x00 (0000ms, 1310ms total)
T3858 001:358 JLINK_WriteReg(R8, 0x00000000)  returns 0x00 (0000ms, 1310ms total)
T3858 001:358 JLINK_WriteReg(R9, 0x200001CC)  returns 0x00 (0000ms, 1310ms total)
T3858 001:358 JLINK_WriteReg(R10, 0x00000000)  returns 0x00 (0000ms, 1310ms total)
T3858 001:358 JLINK_WriteReg(R11, 0x00000000)  returns 0x00 (0000ms, 1310ms total)
T3858 001:358 JLINK_WriteReg(R12, 0x00000000)  returns 0x00 (0000ms, 1310ms total)
T3858 001:358 JLINK_WriteReg(R13, 0x20001000)  returns 0x00 (0000ms, 1310ms total)
T3858 001:358 JLINK_WriteReg(R14, 0x20000001)  returns 0x00 (0000ms, 1310ms total)
T3858 001:358 JLINK_WriteReg(R15, 0x20000070)  returns 0x00 (0000ms, 1310ms total)
T3858 001:358 JLINK_WriteReg(XPSR, 0x01000000)  returns 0x00 (0000ms, 1310ms total)
T3858 001:358 JLINK_WriteReg(MSP, 0x20001000)  returns 0x00 (0000ms, 1310ms total)
T3858 001:358 JLINK_WriteReg(PSP, 0x20001000)  returns 0x00 (0000ms, 1310ms total)
T3858 001:358 JLINK_WriteReg(CFBP, 0x00000000)  returns 0x00 (0000ms, 1310ms total)
T3858 001:358 JLINK_SetBPEx(Addr = 0x20000000, Type = 0xFFFFFFF2) -- CPU_ReadMem(4 bytes @ 0x20000000) -- CPU_WriteMem(4 bytes @ 0x20000000) -- CPU_ReadMem(4 bytes @ 0x20000000) -- CPU_WriteMem(4 bytes @ 0x20000000) -- CPU_ReadMem(2 bytes @ 0x20000000)  returns 0x00000001 (0009ms, 1310ms total)
T3858 001:367 JLINK_Go() -- CPU_WriteMem(2 bytes @ 0x20000000) -- CPU_WriteMem(4 bytes @ 0xE0002008) -- CPU_WriteMem(4 bytes @ 0xE000200C) -- CPU_WriteMem(4 bytes @ 0xE0002010) -- CPU_WriteMem(4 bytes @ 0xE0002014) -- CPU_WriteMem(4 bytes @ 0xE0002018) -- CPU_WriteMem(4 bytes @ 0xE000201C) (0021ms, 1319ms total)
T3858 001:389 JLINK_IsHalted() -- CPU_ReadMem(2 bytes @ 0x20000000)  returns TRUE (0016ms, 1341ms total)
T3858 001:405 JLINK_ReadReg(R15)  returns 0x20000000 (0000ms, 1341ms total)
T3858 001:405 JLINK_ClrBPEx(BPHandle = 0x00000001)  returns 0x00 (0000ms, 1341ms total)
T3858 001:405 JLINK_ReadReg(R0)  returns 0x00000000 (0000ms, 1341ms total)
T3858 001:405 JLINK_WriteReg(R0, 0x08020000)  returns 0x00 (0000ms, 1341ms total)
T3858 001:405 JLINK_WriteReg(R1, 0x00020000)  returns 0x00 (0000ms, 1341ms total)
T3858 001:405 JLINK_WriteReg(R2, 0x000000FF)  returns 0x00 (0000ms, 1341ms total)
T3858 001:405 JLINK_WriteReg(R3, 0x00000000)  returns 0x00 (0000ms, 1341ms total)
T3858 001:405 JLINK_WriteReg(R4, 0x00000000)  returns 0x00 (0000ms, 1341ms total)
T3858 001:405 JLINK_WriteReg(R5, 0x00000000)  returns 0x00 (0000ms, 1341ms total)
T3858 001:405 JLINK_WriteReg(R6, 0x00000000)  returns 0x00 (0000ms, 1341ms total)
T3858 001:405 JLINK_WriteReg(R7, 0x00000000)  returns 0x00 (0000ms, 1341ms total)
T3858 001:405 JLINK_WriteReg(R8, 0x00000000)  returns 0x00 (0000ms, 1341ms total)
T3858 001:405 JLINK_WriteReg(R9, 0x200001CC)  returns 0x00 (0000ms, 1341ms total)
T3858 001:405 JLINK_WriteReg(R10, 0x00000000)  returns 0x00 (0001ms, 1341ms total)
T3858 001:406 JLINK_WriteReg(R11, 0x00000000)  returns 0x00 (0000ms, 1342ms total)
T3858 001:406 JLINK_WriteReg(R12, 0x00000000)  returns 0x00 (0000ms, 1342ms total)
T3858 001:406 JLINK_WriteReg(R13, 0x20001000)  returns 0x00 (0000ms, 1342ms total)
T3858 001:406 JLINK_WriteReg(R14, 0x20000001)  returns 0x00 (0000ms, 1342ms total)
T3858 001:406 JLINK_WriteReg(R15, 0x20000020)  returns 0x00 (0000ms, 1342ms total)
T3858 001:406 JLINK_WriteReg(XPSR, 0x01000000)  returns 0x00 (0000ms, 1342ms total)
T3858 001:406 JLINK_WriteReg(MSP, 0x20001000)  returns 0x00 (0000ms, 1342ms total)
T3858 001:406 JLINK_WriteReg(PSP, 0x20001000)  returns 0x00 (0000ms, 1342ms total)
T3858 001:406 JLINK_WriteReg(CFBP, 0x00000000)  returns 0x00 (0000ms, 1342ms total)
T3858 001:406 JLINK_SetBPEx(Addr = 0x20000000, Type = 0xFFFFFFF2)  returns 0x00000002 (0000ms, 1342ms total)
T3858 001:406 JLINK_Go() -- CPU_WriteMem(4 bytes @ 0xE0002008) -- CPU_WriteMem(4 bytes @ 0xE000200C) -- CPU_WriteMem(4 bytes @ 0xE0002010) -- CPU_WriteMem(4 bytes @ 0xE0002014) -- CPU_WriteMem(4 bytes @ 0xE0002018) -- CPU_WriteMem(4 bytes @ 0xE000201C) (0021ms, 1342ms total)
T3858 001:428 JLINK_IsHalted() -- CPU_ReadMem(2 bytes @ 0x20000000)  returns TRUE (0016ms, 1364ms total)
T3858 001:444 JLINK_ReadReg(R15)  returns 0x20000000 (0000ms, 1364ms total)
T3858 001:444 JLINK_ClrBPEx(BPHandle = 0x00000002)  returns 0x00 (0000ms, 1364ms total)
T3858 001:444 JLINK_ReadReg(R0)  returns 0x00000001 (0000ms, 1364ms total)
T3858 001:444 JLINK_WriteReg(R0, 0x08020000)  returns 0x00 (0000ms, 1364ms total)
T3858 001:444 JLINK_WriteReg(R1, 0x00020000)  returns 0x00 (0000ms, 1364ms total)
T3858 001:444 JLINK_WriteReg(R2, 0x000000FF)  returns 0x00 (0000ms, 1364ms total)
T3858 001:444 JLINK_WriteReg(R3, 0x00000000)  returns 0x00 (0000ms, 1364ms total)
T3858 001:444 JLINK_WriteReg(R4, 0x00000000)  returns 0x00 (0000ms, 1364ms total)
T3858 001:444 JLINK_WriteReg(R5, 0x00000000)  returns 0x00 (0000ms, 1364ms total)
T3858 001:444 JLINK_WriteReg(R6, 0x00000000)  returns 0x00 (0000ms, 1364ms total)
T3858 001:444 JLINK_WriteReg(R7, 0x00000000)  returns 0x00 (0000ms, 1364ms total)
T3858 001:444 JLINK_WriteReg(R8, 0x00000000)  returns 0x00 (0000ms, 1364ms total)
T3858 001:444 JLINK_WriteReg(R9, 0x200001CC)  returns 0x00 (0000ms, 1364ms total)
T3858 001:444 JLINK_WriteReg(R10, 0x00000000)  returns 0x00 (0000ms, 1364ms total)
T3858 001:444 JLINK_WriteReg(R11, 0x00000000)  returns 0x00 (0001ms, 1364ms total)
T3858 001:445 JLINK_WriteReg(R12, 0x00000000)  returns 0x00 (0000ms, 1365ms total)
T3858 001:445 JLINK_WriteReg(R13, 0x20001000)  returns 0x00 (0000ms, 1365ms total)
T3858 001:445 JLINK_WriteReg(R14, 0x20000001)  returns 0x00 (0000ms, 1365ms total)
T3858 001:445 JLINK_WriteReg(R15, 0x20000100)  returns 0x00 (0000ms, 1365ms total)
T3858 001:445 JLINK_WriteReg(XPSR, 0x01000000)  returns 0x00 (0000ms, 1365ms total)
T3858 001:445 JLINK_WriteReg(MSP, 0x20001000)  returns 0x00 (0000ms, 1365ms total)
T3858 001:445 JLINK_WriteReg(PSP, 0x20001000)  returns 0x00 (0000ms, 1365ms total)
T3858 001:445 JLINK_WriteReg(CFBP, 0x00000000)  returns 0x00 (0000ms, 1365ms total)
T3858 001:445 JLINK_SetBPEx(Addr = 0x20000000, Type = 0xFFFFFFF2)  returns 0x00000003 (0000ms, 1365ms total)
T3858 001:445 JLINK_Go() -- CPU_WriteMem(4 bytes @ 0xE0002008) -- CPU_WriteMem(4 bytes @ 0xE000200C) -- CPU_WriteMem(4 bytes @ 0xE0002010) -- CPU_WriteMem(4 bytes @ 0xE0002014) -- CPU_WriteMem(4 bytes @ 0xE0002018) -- CPU_WriteMem(4 bytes @ 0xE000201C) (0020ms, 1365ms total)
T3858 001:465 JLINK_IsHalted()  returns FALSE (0002ms, 1385ms total)
T3858 001:524 JLINK_IsHalted()  returns FALSE (0002ms, 1385ms total)
T3858 001:528 JLINK_IsHalted()  returns FALSE (0002ms, 1385ms total)
T3858 001:532 JLINK_IsHalted()  returns FALSE (0002ms, 1385ms total)
T3858 001:544 JLINK_IsHalted()  returns FALSE (0002ms, 1385ms total)
T3858 001:549 JLINK_IsHalted()  returns FALSE (0002ms, 1385ms total)
T3858 001:554 JLINK_IsHalted()  returns FALSE (0002ms, 1385ms total)
T3858 001:559 JLINK_IsHalted()  returns FALSE (0002ms, 1385ms total)
T3858 001:565 JLINK_IsHalted()  returns FALSE (0002ms, 1385ms total)
T3858 001:570 JLINK_IsHalted()  returns FALSE (0002ms, 1385ms total)
T3858 001:575 JLINK_IsHalted()  returns FALSE (0001ms, 1385ms total)
T3858 001:579 JLINK_IsHalted()  returns FALSE (0001ms, 1385ms total)
T3858 001:583 JLINK_IsHalted()  returns FALSE (0001ms, 1385ms total)
T3858 001:586 JLINK_IsHalted()  returns FALSE (0001ms, 1385ms total)
T3858 001:589 JLINK_IsHalted()  returns FALSE (0001ms, 1385ms total)
T3858 001:594 JLINK_IsHalted()  returns FALSE (0001ms, 1385ms total)
T3858 001:605 JLINK_IsHalted()  returns FALSE (0001ms, 1385ms total)
T3858 001:608 JLINK_IsHalted()  returns FALSE (0002ms, 1385ms total)
T3858 001:612 JLINK_IsHalted() -- CPU_ReadMem(2 bytes @ 0x20000000)  returns TRUE (0016ms, 1385ms total)
T3858 001:628 JLINK_ReadReg(R15)  returns 0x20000000 (0000ms, 1385ms total)
T3858 001:628 JLINK_ClrBPEx(BPHandle = 0x00000003)  returns 0x00 (0000ms, 1385ms total)
T3858 001:628 JLINK_ReadReg(R0)  returns 0x00000000 (0000ms, 1385ms total)
T3858 001:630 JLINK_WriteReg(R0, 0x00000001)  returns 0x00 (0000ms, 1385ms total)
T3858 001:630 JLINK_WriteReg(R1, 0x00020000)  returns 0x00 (0000ms, 1385ms total)
T3858 001:630 JLINK_WriteReg(R2, 0x000000FF)  returns 0x00 (0000ms, 1385ms total)
T3858 001:630 JLINK_WriteReg(R3, 0x00000000)  returns 0x00 (0000ms, 1385ms total)
T3858 001:630 JLINK_WriteReg(R4, 0x00000000)  returns 0x00 (0000ms, 1385ms total)
T3858 001:630 JLINK_WriteReg(R5, 0x00000000)  returns 0x00 (0000ms, 1385ms total)
T3858 001:630 JLINK_WriteReg(R6, 0x00000000)  returns 0x00 (0000ms, 1385ms total)
T3858 001:630 JLINK_WriteReg(R7, 0x00000000)  returns 0x00 (0000ms, 1385ms total)
T3858 001:630 JLINK_WriteReg(R8, 0x00000000)  returns 0x00 (0000ms, 1385ms total)
T3858 001:630 JLINK_WriteReg(R9, 0x200001CC)  returns 0x00 (0000ms, 1385ms total)
T3858 001:630 JLINK_WriteReg(R10, 0x00000000)  returns 0x00 (0000ms, 1385ms total)
T3858 001:630 JLINK_WriteReg(R11, 0x00000000)  returns 0x00 (0000ms, 1385ms total)
T3858 001:630 JLINK_WriteReg(R12, 0x00000000)  returns 0x00 (0000ms, 1385ms total)
T3858 001:630 JLINK_WriteReg(R13, 0x20001000)  returns 0x00 (0000ms, 1385ms total)
T3858 001:630 JLINK_WriteReg(R14, 0x20000001)  returns 0x00 (0000ms, 1385ms total)
T3858 001:630 JLINK_WriteReg(R15, 0x200000AC)  returns 0x00 (0000ms, 1385ms total)
T3858 001:630 JLINK_WriteReg(XPSR, 0x01000000)  returns 0x00 (0000ms, 1385ms total)
T3858 001:630 JLINK_WriteReg(MSP, 0x20001000)  returns 0x00 (0000ms, 1385ms total)
T3858 001:630 JLINK_WriteReg(PSP, 0x20001000)  returns 0x00 (0000ms, 1385ms total)
T3858 001:630 JLINK_WriteReg(CFBP, 0x00000000)  returns 0x00 (0000ms, 1385ms total)
T3858 001:630 JLINK_SetBPEx(Addr = 0x20000000, Type = 0xFFFFFFF2)  returns 0x00000004 (0000ms, 1385ms total)
T3858 001:630 JLINK_Go() -- CPU_WriteMem(4 bytes @ 0xE0002008) -- CPU_WriteMem(4 bytes @ 0xE000200C) -- CPU_WriteMem(4 bytes @ 0xE0002010) -- CPU_WriteMem(4 bytes @ 0xE0002014) -- CPU_WriteMem(4 bytes @ 0xE0002018) -- CPU_WriteMem(4 bytes @ 0xE000201C) (0015ms, 1385ms total)
T3858 001:645 JLINK_IsHalted() -- CPU_ReadMem(2 bytes @ 0x20000000)  returns TRUE (0014ms, 1400ms total)
T3858 001:659 JLINK_ReadReg(R15)  returns 0x20000000 (0000ms, 1400ms total)
T3858 001:659 JLINK_ClrBPEx(BPHandle = 0x00000004)  returns 0x00 (0000ms, 1400ms total)
T3858 001:659 JLINK_ReadReg(R0)  returns 0x00000000 (0000ms, 1400ms total)
T3858 001:731 JLINK_WriteMem(0x20000000, 0x01D0 Bytes, ...) -- Data:  00 BE 0A E0 0D 78 2D 06 68 40 08 24 40 00 00 D3 ... -- CPU_WriteMem(464 bytes @ 0x20000000)  returns 0x1D0 (0013ms, 1400ms total)
T3858 001:744 JLINK_WriteReg(R0, 0x08000000)  returns 0x00 (0000ms, 1413ms total)
T3858 001:744 JLINK_WriteReg(R1, 0x00B71B00)  returns 0x00 (0000ms, 1413ms total)
T3858 001:744 JLINK_WriteReg(R2, 0x00000002)  returns 0x00 (0000ms, 1413ms total)
T3858 001:744 JLINK_WriteReg(R3, 0x00000000)  returns 0x00 (0000ms, 1413ms total)
T3858 001:744 JLINK_WriteReg(R4, 0x00000000)  returns 0x00 (0000ms, 1413ms total)
T3858 001:744 JLINK_WriteReg(R5, 0x00000000)  returns 0x00 (0000ms, 1413ms total)
T3858 001:744 JLINK_WriteReg(R6, 0x00000000)  returns 0x00 (0000ms, 1413ms total)
T3858 001:744 JLINK_WriteReg(R7, 0x00000000)  returns 0x00 (0000ms, 1413ms total)
T3858 001:744 JLINK_WriteReg(R8, 0x00000000)  returns 0x00 (0000ms, 1413ms total)
T3858 001:744 JLINK_WriteReg(R9, 0x200001CC)  returns 0x00 (0000ms, 1413ms total)
T3858 001:744 JLINK_WriteReg(R10, 0x00000000)  returns 0x00 (0000ms, 1413ms total)
T3858 001:744 JLINK_WriteReg(R11, 0x00000000)  returns 0x00 (0000ms, 1413ms total)
T3858 001:744 JLINK_WriteReg(R12, 0x00000000)  returns 0x00 (0000ms, 1413ms total)
T3858 001:744 JLINK_WriteReg(R13, 0x20001000)  returns 0x00 (0000ms, 1413ms total)
T3858 001:744 JLINK_WriteReg(R14, 0x20000001)  returns 0x00 (0000ms, 1413ms total)
T3858 001:744 JLINK_WriteReg(R15, 0x20000070)  returns 0x00 (0000ms, 1413ms total)
T3858 001:744 JLINK_WriteReg(XPSR, 0x01000000)  returns 0x00 (0000ms, 1413ms total)
T3858 001:744 JLINK_WriteReg(MSP, 0x20001000)  returns 0x00 (0000ms, 1413ms total)
T3858 001:744 JLINK_WriteReg(PSP, 0x20001000)  returns 0x00 (0000ms, 1413ms total)
T3858 001:744 JLINK_WriteReg(CFBP, 0x00000000)  returns 0x00 (0000ms, 1413ms total)
T3858 001:744 JLINK_SetBPEx(Addr = 0x20000000, Type = 0xFFFFFFF2) -- CPU_ReadMem(4 bytes @ 0x20000000) -- CPU_WriteMem(4 bytes @ 0x20000000) -- CPU_ReadMem(4 bytes @ 0x20000000) -- CPU_WriteMem(4 bytes @ 0x20000000) -- CPU_ReadMem(2 bytes @ 0x20000000)  returns 0x00000005 (0008ms, 1413ms total)
T3858 001:752 JLINK_Go() -- CPU_WriteMem(2 bytes @ 0x20000000) -- CPU_WriteMem(4 bytes @ 0xE0002008) -- CPU_WriteMem(4 bytes @ 0xE000200C) -- CPU_WriteMem(4 bytes @ 0xE0002010) -- CPU_WriteMem(4 bytes @ 0xE0002014) -- CPU_WriteMem(4 bytes @ 0xE0002018) -- CPU_WriteMem(4 bytes @ 0xE000201C) (0016ms, 1421ms total)
T3858 001:768 JLINK_IsHalted() -- CPU_ReadMem(2 bytes @ 0x20000000)  returns TRUE (0014ms, 1437ms total)
T3858 001:782 JLINK_ReadReg(R15)  returns 0x20000000 (0000ms, 1437ms total)
T3858 001:782 JLINK_ClrBPEx(BPHandle = 0x00000005)  returns 0x00 (0000ms, 1437ms total)
T3858 001:782 JLINK_ReadReg(R0)  returns 0x00000000 (0000ms, 1437ms total)
T3858 001:782 JLINK_WriteMem(0x200001D0, 0x0400 Bytes, ...) -- Data:  20 99 00 20 5D 02 02 08 8D 10 02 08 85 10 02 08 ... -- CPU_WriteMem(1024 bytes @ 0x200001D0)  returns 0x400 (0026ms, 1437ms total)
T3858 001:808 JLINK_WriteReg(R0, 0x08020000)  returns 0x00 (0000ms, 1463ms total)
T3858 001:808 JLINK_WriteReg(R1, 0x00000400)  returns 0x00 (0000ms, 1463ms total)
T3858 001:808 JLINK_WriteReg(R2, 0x200001D0)  returns 0x00 (0000ms, 1463ms total)
T3858 001:808 JLINK_WriteReg(R3, 0x00000000)  returns 0x00 (0000ms, 1463ms total)
T3858 001:808 JLINK_WriteReg(R4, 0x00000000)  returns 0x00 (0000ms, 1463ms total)
T3858 001:808 JLINK_WriteReg(R5, 0x00000000)  returns 0x00 (0000ms, 1463ms total)
T3858 001:808 JLINK_WriteReg(R6, 0x00000000)  returns 0x00 (0000ms, 1463ms total)
T3858 001:808 JLINK_WriteReg(R7, 0x00000000)  returns 0x00 (0000ms, 1463ms total)
T3858 001:808 JLINK_WriteReg(R8, 0x00000000)  returns 0x00 (0000ms, 1463ms total)
T3858 001:808 JLINK_WriteReg(R9, 0x200001CC)  returns 0x00 (0000ms, 1463ms total)
T3858 001:808 JLINK_WriteReg(R10, 0x00000000)  returns 0x00 (0000ms, 1463ms total)
T3858 001:808 JLINK_WriteReg(R11, 0x00000000)  returns 0x00 (0000ms, 1463ms total)
T3858 001:808 JLINK_WriteReg(R12, 0x00000000)  returns 0x00 (0000ms, 1463ms total)
T3858 001:808 JLINK_WriteReg(R13, 0x20001000)  returns 0x00 (0000ms, 1463ms total)
T3858 001:808 JLINK_WriteReg(R14, 0x20000001)  returns 0x00 (0000ms, 1463ms total)
T3858 001:808 JLINK_WriteReg(R15, 0x20000158)  returns 0x00 (0000ms, 1463ms total)
T3858 001:808 JLINK_WriteReg(XPSR, 0x01000000)  returns 0x00 (0000ms, 1463ms total)
T3858 001:808 JLINK_WriteReg(MSP, 0x20001000)  returns 0x00 (0000ms, 1463ms total)
T3858 001:808 JLINK_WriteReg(PSP, 0x20001000)  returns 0x00 (0001ms, 1463ms total)
T3858 001:809 JLINK_WriteReg(CFBP, 0x00000000)  returns 0x00 (0000ms, 1464ms total)
T3858 001:809 JLINK_SetBPEx(Addr = 0x20000000, Type = 0xFFFFFFF2)  returns 0x00000006 (0000ms, 1464ms total)
T3858 001:809 JLINK_Go() -- CPU_WriteMem(4 bytes @ 0xE0002008) -- CPU_WriteMem(4 bytes @ 0xE000200C) -- CPU_WriteMem(4 bytes @ 0xE0002010) -- CPU_WriteMem(4 bytes @ 0xE0002014) -- CPU_WriteMem(4 bytes @ 0xE0002018) -- CPU_WriteMem(4 bytes @ 0xE000201C) (0015ms, 1464ms total)
T3858 001:824 JLINK_IsHalted()  returns FALSE (0002ms, 1479ms total)
T3858 001:836 JLINK_IsHalted()  returns FALSE (0001ms, 1479ms total)
T3858 001:839 JLINK_IsHalted() -- CPU_ReadMem(2 bytes @ 0x20000000)  returns TRUE (0013ms, 1479ms total)
T3858 001:852 JLINK_ReadReg(R15)  returns 0x20000000 (0000ms, 1479ms total)
T3858 001:852 JLINK_ClrBPEx(BPHandle = 0x00000006)  returns 0x00 (0000ms, 1479ms total)
T3858 001:852 JLINK_ReadReg(R0)  returns 0x00000000 (0000ms, 1479ms total)
T3858 001:852 JLINK_WriteMem(0x200001D0, 0x0400 Bytes, ...) -- Data:  A9 41 05 D2 40 46 21 46 90 46 1C 46 0B 46 02 46 ... -- CPU_WriteMem(1024 bytes @ 0x200001D0)  returns 0x400 (0026ms, 1479ms total)
T3858 001:878 JLINK_WriteReg(R0, 0x08020400)  returns 0x00 (0000ms, 1505ms total)
T3858 001:878 JLINK_WriteReg(R1, 0x00000400)  returns 0x00 (0000ms, 1505ms total)
T3858 001:878 JLINK_WriteReg(R2, 0x200001D0)  returns 0x00 (0000ms, 1505ms total)
T3858 001:878 JLINK_WriteReg(R3, 0x00000000)  returns 0x00 (0000ms, 1505ms total)
T3858 001:878 JLINK_WriteReg(R4, 0x00000000)  returns 0x00 (0001ms, 1505ms total)
T3858 001:879 JLINK_WriteReg(R5, 0x00000000)  returns 0x00 (0000ms, 1506ms total)
T3858 001:879 JLINK_WriteReg(R6, 0x00000000)  returns 0x00 (0000ms, 1506ms total)
T3858 001:879 JLINK_WriteReg(R7, 0x00000000)  returns 0x00 (0000ms, 1506ms total)
T3858 001:879 JLINK_WriteReg(R8, 0x00000000)  returns 0x00 (0000ms, 1506ms total)
T3858 001:879 JLINK_WriteReg(R9, 0x200001CC)  returns 0x00 (0000ms, 1506ms total)
T3858 001:879 JLINK_WriteReg(R10, 0x00000000)  returns 0x00 (0000ms, 1506ms total)
T3858 001:879 JLINK_WriteReg(R11, 0x00000000)  returns 0x00 (0000ms, 1506ms total)
T3858 001:879 JLINK_WriteReg(R12, 0x00000000)  returns 0x00 (0000ms, 1506ms total)
T3858 001:879 JLINK_WriteReg(R13, 0x20001000)  returns 0x00 (0000ms, 1506ms total)
T3858 001:879 JLINK_WriteReg(R14, 0x20000001)  returns 0x00 (0000ms, 1506ms total)
T3858 001:879 JLINK_WriteReg(R15, 0x20000158)  returns 0x00 (0000ms, 1506ms total)
T3858 001:879 JLINK_WriteReg(XPSR, 0x01000000)  returns 0x00 (0000ms, 1506ms total)
T3858 001:879 JLINK_WriteReg(MSP, 0x20001000)  returns 0x00 (0000ms, 1506ms total)
T3858 001:879 JLINK_WriteReg(PSP, 0x20001000)  returns 0x00 (0000ms, 1506ms total)
T3858 001:879 JLINK_WriteReg(CFBP, 0x00000000)  returns 0x00 (0000ms, 1506ms total)
T3858 001:879 JLINK_SetBPEx(Addr = 0x20000000, Type = 0xFFFFFFF2)  returns 0x00000007 (0000ms, 1506ms total)
T3858 001:879 JLINK_Go() -- CPU_WriteMem(4 bytes @ 0xE0002008) -- CPU_WriteMem(4 bytes @ 0xE000200C) -- CPU_WriteMem(4 bytes @ 0xE0002010) -- CPU_WriteMem(4 bytes @ 0xE0002014) -- CPU_WriteMem(4 bytes @ 0xE0002018) -- CPU_WriteMem(4 bytes @ 0xE000201C) (0013ms, 1506ms total)
T3858 001:892 JLINK_IsHalted()  returns FALSE (0002ms, 1519ms total)
T3858 001:896 JLINK_IsHalted()  returns FALSE (0001ms, 1519ms total)
T3858 001:900 JLINK_IsHalted()  returns FALSE (0001ms, 1519ms total)
T3858 001:903 JLINK_IsHalted()  returns FALSE (0002ms, 1519ms total)
T3858 001:907 JLINK_IsHalted() -- CPU_ReadMem(2 bytes @ 0x20000000)  returns TRUE (0016ms, 1519ms total)
T3858 001:923 JLINK_ReadReg(R15)  returns 0x20000000 (0000ms, 1519ms total)
T3858 001:923 JLINK_ClrBPEx(BPHandle = 0x00000007)  returns 0x00 (0000ms, 1519ms total)
T3858 001:923 JLINK_ReadReg(R0)  returns 0x00000000 (0000ms, 1519ms total)
T3858 001:924 JLINK_WriteMem(0x200001D0, 0x0400 Bytes, ...) -- Data:  20 3A 41 FA 02 F0 43 EA E0 73 06 E0 41 FA 02 F3 ... -- CPU_WriteMem(1024 bytes @ 0x200001D0)  returns 0x400 (0026ms, 1519ms total)
T3858 001:950 JLINK_WriteReg(R0, 0x08020800)  returns 0x00 (0000ms, 1545ms total)
T3858 001:950 JLINK_WriteReg(R1, 0x00000400)  returns 0x00 (0000ms, 1545ms total)
T3858 001:950 JLINK_WriteReg(R2, 0x200001D0)  returns 0x00 (0000ms, 1545ms total)
T3858 001:950 JLINK_WriteReg(R3, 0x00000000)  returns 0x00 (0000ms, 1545ms total)
T3858 001:950 JLINK_WriteReg(R4, 0x00000000)  returns 0x00 (0000ms, 1545ms total)
T3858 001:950 JLINK_WriteReg(R5, 0x00000000)  returns 0x00 (0000ms, 1545ms total)
T3858 001:950 JLINK_WriteReg(R6, 0x00000000)  returns 0x00 (0000ms, 1545ms total)
T3858 001:950 JLINK_WriteReg(R7, 0x00000000)  returns 0x00 (0000ms, 1545ms total)
T3858 001:950 JLINK_WriteReg(R8, 0x00000000)  returns 0x00 (0000ms, 1545ms total)
T3858 001:950 JLINK_WriteReg(R9, 0x200001CC)  returns 0x00 (0000ms, 1545ms total)
T3858 001:950 JLINK_WriteReg(R10, 0x00000000)  returns 0x00 (0000ms, 1545ms total)
T3858 001:950 JLINK_WriteReg(R11, 0x00000000)  returns 0x00 (0000ms, 1545ms total)
T3858 001:950 JLINK_WriteReg(R12, 0x00000000)  returns 0x00 (0000ms, 1545ms total)
T3858 001:950 JLINK_WriteReg(R13, 0x20001000)  returns 0x00 (0000ms, 1545ms total)
T3858 001:950 JLINK_WriteReg(R14, 0x20000001)  returns 0x00 (0000ms, 1545ms total)
T3858 001:950 JLINK_WriteReg(R15, 0x20000158)  returns 0x00 (0000ms, 1545ms total)
T3858 001:950 JLINK_WriteReg(XPSR, 0x01000000)  returns 0x00 (0000ms, 1545ms total)
T3858 001:950 JLINK_WriteReg(MSP, 0x20001000)  returns 0x00 (0000ms, 1545ms total)
T3858 001:950 JLINK_WriteReg(PSP, 0x20001000)  returns 0x00 (0000ms, 1545ms total)
T3858 001:950 JLINK_WriteReg(CFBP, 0x00000000)  returns 0x00 (0000ms, 1545ms total)
T3858 001:950 JLINK_SetBPEx(Addr = 0x20000000, Type = 0xFFFFFFF2)  returns 0x00000008 (0000ms, 1545ms total)
T3858 001:950 JLINK_Go() -- CPU_WriteMem(4 bytes @ 0xE0002008) -- CPU_WriteMem(4 bytes @ 0xE000200C) -- CPU_WriteMem(4 bytes @ 0xE0002010) -- CPU_WriteMem(4 bytes @ 0xE0002014) -- CPU_WriteMem(4 bytes @ 0xE0002018) -- CPU_WriteMem(4 bytes @ 0xE000201C) (0020ms, 1545ms total)
T3858 001:970 JLINK_IsHalted()  returns FALSE (0003ms, 1565ms total)
T3858 001:983 JLINK_IsHalted() -- CPU_ReadMem(2 bytes @ 0x20000000)  returns TRUE (0013ms, 1565ms total)
T3858 001:996 JLINK_ReadReg(R15)  returns 0x20000000 (0000ms, 1565ms total)
T3858 001:996 JLINK_ClrBPEx(BPHandle = 0x00000008)  returns 0x00 (0000ms, 1565ms total)
T3858 001:998 JLINK_ReadReg(R0)  returns 0x00000000 (0000ms, 1565ms total)
T3858 001:998 JLINK_WriteMem(0x200001D0, 0x0400 Bytes, ...) -- Data:  0E 98 88 47 82 46 0F 98 44 F4 00 74 76 1E 05 60 ... -- CPU_WriteMem(1024 bytes @ 0x200001D0)  returns 0x400 (0025ms, 1565ms total)
T3858 002:023 JLINK_WriteReg(R0, 0x08020C00)  returns 0x00 (0000ms, 1590ms total)
T3858 002:023 JLINK_WriteReg(R1, 0x00000400)  returns 0x00 (0000ms, 1590ms total)
T3858 002:023 JLINK_WriteReg(R2, 0x200001D0)  returns 0x00 (0001ms, 1590ms total)
T3858 002:024 JLINK_WriteReg(R3, 0x00000000)  returns 0x00 (0000ms, 1591ms total)
T3858 002:024 JLINK_WriteReg(R4, 0x00000000)  returns 0x00 (0000ms, 1591ms total)
T3858 002:024 JLINK_WriteReg(R5, 0x00000000)  returns 0x00 (0000ms, 1591ms total)
T3858 002:024 JLINK_WriteReg(R6, 0x00000000)  returns 0x00 (0000ms, 1591ms total)
T3858 002:024 JLINK_WriteReg(R7, 0x00000000)  returns 0x00 (0000ms, 1591ms total)
T3858 002:024 JLINK_WriteReg(R8, 0x00000000)  returns 0x00 (0000ms, 1591ms total)
T3858 002:024 JLINK_WriteReg(R9, 0x200001CC)  returns 0x00 (0000ms, 1591ms total)
T3858 002:024 JLINK_WriteReg(R10, 0x00000000)  returns 0x00 (0000ms, 1591ms total)
T3858 002:024 JLINK_WriteReg(R11, 0x00000000)  returns 0x00 (0000ms, 1591ms total)
T3858 002:024 JLINK_WriteReg(R12, 0x00000000)  returns 0x00 (0000ms, 1591ms total)
T3858 002:024 JLINK_WriteReg(R13, 0x20001000)  returns 0x00 (0000ms, 1591ms total)
T3858 002:024 JLINK_WriteReg(R14, 0x20000001)  returns 0x00 (0000ms, 1591ms total)
T3858 002:024 JLINK_WriteReg(R15, 0x20000158)  returns 0x00 (0000ms, 1591ms total)
T3858 002:024 JLINK_WriteReg(XPSR, 0x01000000)  returns 0x00 (0000ms, 1591ms total)
T3858 002:024 JLINK_WriteReg(MSP, 0x20001000)  returns 0x00 (0000ms, 1591ms total)
T3858 002:024 JLINK_WriteReg(PSP, 0x20001000)  returns 0x00 (0000ms, 1591ms total)
T3858 002:024 JLINK_WriteReg(CFBP, 0x00000000)  returns 0x00 (0000ms, 1591ms total)
T3858 002:024 JLINK_SetBPEx(Addr = 0x20000000, Type = 0xFFFFFFF2)  returns 0x00000009 (0000ms, 1591ms total)
T3858 002:024 JLINK_Go() -- CPU_WriteMem(4 bytes @ 0xE0002008) -- CPU_WriteMem(4 bytes @ 0xE000200C) -- CPU_WriteMem(4 bytes @ 0xE0002010) -- CPU_WriteMem(4 bytes @ 0xE0002014) -- CPU_WriteMem(4 bytes @ 0xE0002018) -- CPU_WriteMem(4 bytes @ 0xE000201C) (0015ms, 1591ms total)
T3858 002:039 JLINK_IsHalted()  returns FALSE (0002ms, 1606ms total)
T3858 002:052 JLINK_IsHalted() -- CPU_ReadMem(2 bytes @ 0x20000000)  returns TRUE (0016ms, 1606ms total)
T3858 002:068 JLINK_ReadReg(R15)  returns 0x20000000 (0000ms, 1606ms total)
T3858 002:069 JLINK_ClrBPEx(BPHandle = 0x00000009)  returns 0x00 (0000ms, 1607ms total)
T3858 002:069 JLINK_ReadReg(R0)  returns 0x00000000 (0000ms, 1607ms total)
T3858 002:073 JLINK_WriteMem(0x200001D0, 0x0400 Bytes, ...) -- Data:  06 49 40 46 FF F7 AF F9 00 26 30 46 BD E8 F0 87 ... -- CPU_WriteMem(1024 bytes @ 0x200001D0)  returns 0x400 (0027ms, 1607ms total)
T3858 002:100 JLINK_WriteReg(R0, 0x08021000)  returns 0x00 (0000ms, 1634ms total)
T3858 002:100 JLINK_WriteReg(R1, 0x00000400)  returns 0x00 (0000ms, 1634ms total)
T3858 002:100 JLINK_WriteReg(R2, 0x200001D0)  returns 0x00 (0001ms, 1634ms total)
T3858 002:101 JLINK_WriteReg(R3, 0x00000000)  returns 0x00 (0000ms, 1635ms total)
T3858 002:101 JLINK_WriteReg(R4, 0x00000000)  returns 0x00 (0000ms, 1635ms total)
T3858 002:101 JLINK_WriteReg(R5, 0x00000000)  returns 0x00 (0000ms, 1635ms total)
T3858 002:101 JLINK_WriteReg(R6, 0x00000000)  returns 0x00 (0001ms, 1635ms total)
T3858 002:102 JLINK_WriteReg(R7, 0x00000000)  returns 0x00 (0000ms, 1636ms total)
T3858 002:102 JLINK_WriteReg(R8, 0x00000000)  returns 0x00 (0000ms, 1636ms total)
T3858 002:102 JLINK_WriteReg(R9, 0x200001CC)  returns 0x00 (0001ms, 1636ms total)
T3858 002:103 JLINK_WriteReg(R10, 0x00000000)  returns 0x00 (0000ms, 1637ms total)
T3858 002:103 JLINK_WriteReg(R11, 0x00000000)  returns 0x00 (0000ms, 1637ms total)
T3858 002:103 JLINK_WriteReg(R12, 0x00000000)  returns 0x00 (0000ms, 1637ms total)
T3858 002:104 JLINK_WriteReg(R13, 0x20001000)  returns 0x00 (0000ms, 1638ms total)
T3858 002:104 JLINK_WriteReg(R14, 0x20000001)  returns 0x00 (0000ms, 1638ms total)
T3858 002:104 JLINK_WriteReg(R15, 0x20000158)  returns 0x00 (0000ms, 1638ms total)
T3858 002:105 JLINK_WriteReg(XPSR, 0x01000000)  returns 0x00 (0000ms, 1639ms total)
T3858 002:105 JLINK_WriteReg(MSP, 0x20001000)  returns 0x00 (0000ms, 1639ms total)
T3858 002:105 JLINK_WriteReg(PSP, 0x20001000)  returns 0x00 (0000ms, 1639ms total)
T3858 002:106 JLINK_WriteReg(CFBP, 0x00000000)  returns 0x00 (0000ms, 1640ms total)
T3858 002:106 JLINK_SetBPEx(Addr = 0x20000000, Type = 0xFFFFFFF2)  returns 0x0000000A (0000ms, 1640ms total)
T3858 002:106 JLINK_Go() -- CPU_WriteMem(4 bytes @ 0xE0002008) -- CPU_WriteMem(4 bytes @ 0xE000200C) -- CPU_WriteMem(4 bytes @ 0xE0002010) -- CPU_WriteMem(4 bytes @ 0xE0002014) -- CPU_WriteMem(4 bytes @ 0xE0002018) -- CPU_WriteMem(4 bytes @ 0xE000201C) (0020ms, 1640ms total)
T3858 002:126 JLINK_IsHalted()  returns FALSE (0002ms, 1660ms total)
T3858 002:131 JLINK_IsHalted()  returns FALSE (0002ms, 1660ms total)
T3858 002:135 JLINK_IsHalted()  returns FALSE (0003ms, 1660ms total)
T3858 002:141 JLINK_IsHalted() -- CPU_ReadMem(2 bytes @ 0x20000000)  returns TRUE (0016ms, 1660ms total)
T3858 002:157 JLINK_ReadReg(R15)  returns 0x20000000 (0000ms, 1660ms total)
T3858 002:157 JLINK_ClrBPEx(BPHandle = 0x0000000A)  returns 0x00 (0000ms, 1660ms total)
T3858 002:157 JLINK_ReadReg(R0)  returns 0x00000000 (0000ms, 1660ms total)
T3858 002:157 JLINK_WriteMem(0x200001D0, 0x0400 Bytes, ...) -- Data:  01 D2 01 20 70 47 00 20 70 47 00 00 2D E9 FF 4F ... -- CPU_WriteMem(1024 bytes @ 0x200001D0)  returns 0x400 (0027ms, 1660ms total)
T3858 002:186 JLINK_WriteReg(R0, 0x08021400)  returns 0x00 (0000ms, 1687ms total)
T3858 002:186 JLINK_WriteReg(R1, 0x00000400)  returns 0x00 (0000ms, 1687ms total)
T3858 002:186 JLINK_WriteReg(R2, 0x200001D0)  returns 0x00 (0000ms, 1687ms total)
T3858 002:187 JLINK_WriteReg(R3, 0x00000000)  returns 0x00 (0000ms, 1688ms total)
T3858 002:187 JLINK_WriteReg(R4, 0x00000000)  returns 0x00 (0000ms, 1688ms total)
T3858 002:187 JLINK_WriteReg(R5, 0x00000000)  returns 0x00 (0000ms, 1688ms total)
T3858 002:187 JLINK_WriteReg(R6, 0x00000000)  returns 0x00 (0001ms, 1688ms total)
T3858 002:188 JLINK_WriteReg(R7, 0x00000000)  returns 0x00 (0000ms, 1689ms total)
T3858 002:188 JLINK_WriteReg(R8, 0x00000000)  returns 0x00 (0000ms, 1689ms total)
T3858 002:188 JLINK_WriteReg(R9, 0x200001CC)  returns 0x00 (0000ms, 1689ms total)
T3858 002:188 JLINK_WriteReg(R10, 0x00000000)  returns 0x00 (0001ms, 1689ms total)
T3858 002:189 JLINK_WriteReg(R11, 0x00000000)  returns 0x00 (0000ms, 1690ms total)
T3858 002:189 JLINK_WriteReg(R12, 0x00000000)  returns 0x00 (0000ms, 1690ms total)
T3858 002:189 JLINK_WriteReg(R13, 0x20001000)  returns 0x00 (0000ms, 1690ms total)
T3858 002:189 JLINK_WriteReg(R14, 0x20000001)  returns 0x00 (0001ms, 1690ms total)
T3858 002:190 JLINK_WriteReg(R15, 0x20000158)  returns 0x00 (0000ms, 1691ms total)
T3858 002:190 JLINK_WriteReg(XPSR, 0x01000000)  returns 0x00 (0000ms, 1691ms total)
T3858 002:190 JLINK_WriteReg(MSP, 0x20001000)  returns 0x00 (0000ms, 1691ms total)
T3858 002:190 JLINK_WriteReg(PSP, 0x20001000)  returns 0x00 (0001ms, 1691ms total)
T3858 002:191 JLINK_WriteReg(CFBP, 0x00000000)  returns 0x00 (0000ms, 1692ms total)
T3858 002:191 JLINK_SetBPEx(Addr = 0x20000000, Type = 0xFFFFFFF2)  returns 0x0000000B (0000ms, 1692ms total)
T3858 002:191 JLINK_Go() -- CPU_WriteMem(4 bytes @ 0xE0002008) -- CPU_WriteMem(4 bytes @ 0xE000200C) -- CPU_WriteMem(4 bytes @ 0xE0002010) -- CPU_WriteMem(4 bytes @ 0xE0002014) -- CPU_WriteMem(4 bytes @ 0xE0002018) -- CPU_WriteMem(4 bytes @ 0xE000201C) (0019ms, 1692ms total)
T3858 002:210 JLINK_IsHalted()  returns FALSE (0001ms, 1711ms total)
T3858 002:219 JLINK_IsHalted()  returns FALSE (0003ms, 1711ms total)
T3858 002:223 JLINK_IsHalted() -- CPU_ReadMem(2 bytes @ 0x20000000)  returns TRUE (0016ms, 1711ms total)
T3858 002:239 JLINK_ReadReg(R15)  returns 0x20000000 (0002ms, 1711ms total)
T3858 002:241 JLINK_ClrBPEx(BPHandle = 0x0000000B)  returns 0x00 (0000ms, 1713ms total)
T3858 002:241 JLINK_ReadReg(R0)  returns 0x00000000 (0000ms, 1713ms total)
T3858 002:247 JLINK_WriteMem(0x200001D0, 0x0400 Bytes, ...) -- Data:  01 0A F1 DC 65 E1 00 00 09 28 01 00 30 31 32 33 ... -- CPU_WriteMem(1024 bytes @ 0x200001D0)  returns 0x400 (0027ms, 1713ms total)
T3858 002:274 JLINK_WriteReg(R0, 0x08021800)  returns 0x00 (0000ms, 1740ms total)
T3858 002:274 JLINK_WriteReg(R1, 0x00000400)  returns 0x00 (0000ms, 1740ms total)
T3858 002:274 JLINK_WriteReg(R2, 0x200001D0)  returns 0x00 (0000ms, 1740ms total)
T3858 002:274 JLINK_WriteReg(R3, 0x00000000)  returns 0x00 (0000ms, 1740ms total)
T3858 002:274 JLINK_WriteReg(R4, 0x00000000)  returns 0x00 (0000ms, 1740ms total)
T3858 002:274 JLINK_WriteReg(R5, 0x00000000)  returns 0x00 (0000ms, 1740ms total)
T3858 002:274 JLINK_WriteReg(R6, 0x00000000)  returns 0x00 (0000ms, 1740ms total)
T3858 002:274 JLINK_WriteReg(R7, 0x00000000)  returns 0x00 (0000ms, 1740ms total)
T3858 002:274 JLINK_WriteReg(R8, 0x00000000)  returns 0x00 (0001ms, 1740ms total)
T3858 002:275 JLINK_WriteReg(R9, 0x200001CC)  returns 0x00 (0000ms, 1741ms total)
T3858 002:275 JLINK_WriteReg(R10, 0x00000000)  returns 0x00 (0000ms, 1741ms total)
T3858 002:275 JLINK_WriteReg(R11, 0x00000000)  returns 0x00 (0000ms, 1741ms total)
T3858 002:275 JLINK_WriteReg(R12, 0x00000000)  returns 0x00 (0000ms, 1741ms total)
T3858 002:275 JLINK_WriteReg(R13, 0x20001000)  returns 0x00 (0000ms, 1741ms total)
T3858 002:275 JLINK_WriteReg(R14, 0x20000001)  returns 0x00 (0000ms, 1741ms total)
T3858 002:275 JLINK_WriteReg(R15, 0x20000158)  returns 0x00 (0000ms, 1741ms total)
T3858 002:275 JLINK_WriteReg(XPSR, 0x01000000)  returns 0x00 (0000ms, 1741ms total)
T3858 002:275 JLINK_WriteReg(MSP, 0x20001000)  returns 0x00 (0000ms, 1741ms total)
T3858 002:275 JLINK_WriteReg(PSP, 0x20001000)  returns 0x00 (0000ms, 1741ms total)
T3858 002:275 JLINK_WriteReg(CFBP, 0x00000000)  returns 0x00 (0000ms, 1741ms total)
T3858 002:275 JLINK_SetBPEx(Addr = 0x20000000, Type = 0xFFFFFFF2)  returns 0x0000000C (0000ms, 1741ms total)
T3858 002:275 JLINK_Go() -- CPU_WriteMem(4 bytes @ 0xE0002008) -- CPU_WriteMem(4 bytes @ 0xE000200C) -- CPU_WriteMem(4 bytes @ 0xE0002010) -- CPU_WriteMem(4 bytes @ 0xE0002014) -- CPU_WriteMem(4 bytes @ 0xE0002018) -- CPU_WriteMem(4 bytes @ 0xE000201C) (0015ms, 1741ms total)
T3858 002:290 JLINK_IsHalted()  returns FALSE (0000ms, 1756ms total)
T3858 002:299 JLINK_IsHalted()  returns FALSE (0003ms, 1756ms total)
T3858 002:303 JLINK_IsHalted() -- CPU_ReadMem(2 bytes @ 0x20000000)  returns TRUE (0016ms, 1756ms total)
T3858 002:319 JLINK_ReadReg(R15)  returns 0x20000000 (0000ms, 1756ms total)
T3858 002:319 JLINK_ClrBPEx(BPHandle = 0x0000000C)  returns 0x00 (0000ms, 1756ms total)
T3858 002:319 JLINK_ReadReg(R0)  returns 0x00000000 (0000ms, 1756ms total)
T3858 002:320 JLINK_WriteMem(0x200001D0, 0x0400 Bytes, ...) -- Data:  54 1E 4F F4 40 15 05 EA 04 54 23 43 83 63 00 E0 ... -- CPU_WriteMem(1024 bytes @ 0x200001D0)  returns 0x400 (0027ms, 1756ms total)
T3858 002:347 JLINK_WriteReg(R0, 0x08021C00)  returns 0x00 (0000ms, 1783ms total)
T3858 002:347 JLINK_WriteReg(R1, 0x00000400)  returns 0x00 (0000ms, 1783ms total)
T3858 002:347 JLINK_WriteReg(R2, 0x200001D0)  returns 0x00 (0000ms, 1783ms total)
T3858 002:347 JLINK_WriteReg(R3, 0x00000000)  returns 0x00 (0000ms, 1783ms total)
T3858 002:347 JLINK_WriteReg(R4, 0x00000000)  returns 0x00 (0000ms, 1783ms total)
T3858 002:347 JLINK_WriteReg(R5, 0x00000000)  returns 0x00 (0000ms, 1783ms total)
T3858 002:347 JLINK_WriteReg(R6, 0x00000000)  returns 0x00 (0000ms, 1783ms total)
T3858 002:347 JLINK_WriteReg(R7, 0x00000000)  returns 0x00 (0000ms, 1783ms total)
T3858 002:347 JLINK_WriteReg(R8, 0x00000000)  returns 0x00 (0000ms, 1783ms total)
T3858 002:347 JLINK_WriteReg(R9, 0x200001CC)  returns 0x00 (0000ms, 1783ms total)
T3858 002:347 JLINK_WriteReg(R10, 0x00000000)  returns 0x00 (0000ms, 1783ms total)
T3858 002:347 JLINK_WriteReg(R11, 0x00000000)  returns 0x00 (0000ms, 1783ms total)
T3858 002:347 JLINK_WriteReg(R12, 0x00000000)  returns 0x00 (0000ms, 1783ms total)
T3858 002:347 JLINK_WriteReg(R13, 0x20001000)  returns 0x00 (0000ms, 1783ms total)
T3858 002:347 JLINK_WriteReg(R14, 0x20000001)  returns 0x00 (0000ms, 1783ms total)
T3858 002:347 JLINK_WriteReg(R15, 0x20000158)  returns 0x00 (0000ms, 1783ms total)
T3858 002:347 JLINK_WriteReg(XPSR, 0x01000000)  returns 0x00 (0000ms, 1783ms total)
T3858 002:347 JLINK_WriteReg(MSP, 0x20001000)  returns 0x00 (0000ms, 1783ms total)
T3858 002:347 JLINK_WriteReg(PSP, 0x20001000)  returns 0x00 (0000ms, 1783ms total)
T3858 002:347 JLINK_WriteReg(CFBP, 0x00000000)  returns 0x00 (0000ms, 1783ms total)
T3858 002:347 JLINK_SetBPEx(Addr = 0x20000000, Type = 0xFFFFFFF2)  returns 0x0000000D (0000ms, 1783ms total)
T3858 002:347 JLINK_Go() -- CPU_WriteMem(4 bytes @ 0xE0002008) -- CPU_WriteMem(4 bytes @ 0xE000200C) -- CPU_WriteMem(4 bytes @ 0xE0002010) -- CPU_WriteMem(4 bytes @ 0xE0002014) -- CPU_WriteMem(4 bytes @ 0xE0002018) -- CPU_WriteMem(4 bytes @ 0xE000201C) (0016ms, 1783ms total)
T3858 002:363 JLINK_IsHalted()  returns FALSE (0003ms, 1799ms total)
T3858 002:376 JLINK_IsHalted() -- CPU_ReadMem(2 bytes @ 0x20000000)  returns TRUE (0017ms, 1799ms total)
T3858 002:393 JLINK_ReadReg(R15)  returns 0x20000000 (0000ms, 1799ms total)
T3858 002:393 JLINK_ClrBPEx(BPHandle = 0x0000000D)  returns 0x00 (0000ms, 1799ms total)
T3858 002:393 JLINK_ReadReg(R0)  returns 0x00000000 (0000ms, 1799ms total)
T3858 002:394 JLINK_WriteMem(0x200001D0, 0x0400 Bytes, ...) -- Data:  04 23 01 40 00 20 01 40 10 B5 00 24 04 20 00 F0 ... -- CPU_WriteMem(1024 bytes @ 0x200001D0)  returns 0x400 (0026ms, 1799ms total)
T3858 002:420 JLINK_WriteReg(R0, 0x08022000)  returns 0x00 (0000ms, 1825ms total)
T3858 002:420 JLINK_WriteReg(R1, 0x00000400)  returns 0x00 (0000ms, 1825ms total)
T3858 002:420 JLINK_WriteReg(R2, 0x200001D0)  returns 0x00 (0000ms, 1825ms total)
T3858 002:420 JLINK_WriteReg(R3, 0x00000000)  returns 0x00 (0000ms, 1825ms total)
T3858 002:420 JLINK_WriteReg(R4, 0x00000000)  returns 0x00 (0000ms, 1825ms total)
T3858 002:420 JLINK_WriteReg(R5, 0x00000000)  returns 0x00 (0000ms, 1825ms total)
T3858 002:420 JLINK_WriteReg(R6, 0x00000000)  returns 0x00 (0000ms, 1825ms total)
T3858 002:420 JLINK_WriteReg(R7, 0x00000000)  returns 0x00 (0000ms, 1825ms total)
T3858 002:420 JLINK_WriteReg(R8, 0x00000000)  returns 0x00 (0000ms, 1825ms total)
T3858 002:420 JLINK_WriteReg(R9, 0x200001CC)  returns 0x00 (0000ms, 1825ms total)
T3858 002:420 JLINK_WriteReg(R10, 0x00000000)  returns 0x00 (0000ms, 1825ms total)
T3858 002:420 JLINK_WriteReg(R11, 0x00000000)  returns 0x00 (0000ms, 1825ms total)
T3858 002:420 JLINK_WriteReg(R12, 0x00000000)  returns 0x00 (0000ms, 1825ms total)
T3858 002:420 JLINK_WriteReg(R13, 0x20001000)  returns 0x00 (0000ms, 1825ms total)
T3858 002:420 JLINK_WriteReg(R14, 0x20000001)  returns 0x00 (0000ms, 1825ms total)
T3858 002:420 JLINK_WriteReg(R15, 0x20000158)  returns 0x00 (0000ms, 1825ms total)
T3858 002:420 JLINK_WriteReg(XPSR, 0x01000000)  returns 0x00 (0000ms, 1825ms total)
T3858 002:420 JLINK_WriteReg(MSP, 0x20001000)  returns 0x00 (0000ms, 1825ms total)
T3858 002:420 JLINK_WriteReg(PSP, 0x20001000)  returns 0x00 (0000ms, 1825ms total)
T3858 002:420 JLINK_WriteReg(CFBP, 0x00000000)  returns 0x00 (0000ms, 1825ms total)
T3858 002:420 JLINK_SetBPEx(Addr = 0x20000000, Type = 0xFFFFFFF2)  returns 0x0000000E (0000ms, 1825ms total)
T3858 002:420 JLINK_Go() -- CPU_WriteMem(4 bytes @ 0xE0002008) -- CPU_WriteMem(4 bytes @ 0xE000200C) -- CPU_WriteMem(4 bytes @ 0xE0002010) -- CPU_WriteMem(4 bytes @ 0xE0002014) -- CPU_WriteMem(4 bytes @ 0xE0002018) -- CPU_WriteMem(4 bytes @ 0xE000201C) (0020ms, 1825ms total)
T3858 002:440 JLINK_IsHalted()  returns FALSE (0003ms, 1845ms total)
T3858 002:445 JLINK_IsHalted()  returns FALSE (0002ms, 1845ms total)
T3858 002:449 JLINK_IsHalted()  returns FALSE (0003ms, 1845ms total)
T3858 002:454 JLINK_IsHalted() -- CPU_ReadMem(2 bytes @ 0x20000000)  returns TRUE (0016ms, 1845ms total)
T3858 002:470 JLINK_ReadReg(R15)  returns 0x20000000 (0000ms, 1845ms total)
T3858 002:470 JLINK_ClrBPEx(BPHandle = 0x0000000E)  returns 0x00 (0000ms, 1845ms total)
T3858 002:470 JLINK_ReadReg(R0)  returns 0x00000000 (0000ms, 1845ms total)
T3858 002:471 JLINK_WriteMem(0x200001D0, 0x0400 Bytes, ...) -- Data:  30 46 FD F7 BC FF A0 42 C5 D8 01 20 F3 E7 00 00 ... -- CPU_WriteMem(1024 bytes @ 0x200001D0)  returns 0x400 (0026ms, 1845ms total)
T3858 002:497 JLINK_WriteReg(R0, 0x08022400)  returns 0x00 (0000ms, 1871ms total)
T3858 002:497 JLINK_WriteReg(R1, 0x00000400)  returns 0x00 (0000ms, 1871ms total)
T3858 002:497 JLINK_WriteReg(R2, 0x200001D0)  returns 0x00 (0000ms, 1871ms total)
T3858 002:497 JLINK_WriteReg(R3, 0x00000000)  returns 0x00 (0000ms, 1871ms total)
T3858 002:497 JLINK_WriteReg(R4, 0x00000000)  returns 0x00 (0000ms, 1871ms total)
T3858 002:497 JLINK_WriteReg(R5, 0x00000000)  returns 0x00 (0000ms, 1871ms total)
T3858 002:497 JLINK_WriteReg(R6, 0x00000000)  returns 0x00 (0000ms, 1871ms total)
T3858 002:497 JLINK_WriteReg(R7, 0x00000000)  returns 0x00 (0000ms, 1871ms total)
T3858 002:497 JLINK_WriteReg(R8, 0x00000000)  returns 0x00 (0000ms, 1871ms total)
T3858 002:497 JLINK_WriteReg(R9, 0x200001CC)  returns 0x00 (0000ms, 1871ms total)
T3858 002:497 JLINK_WriteReg(R10, 0x00000000)  returns 0x00 (0000ms, 1871ms total)
T3858 002:497 JLINK_WriteReg(R11, 0x00000000)  returns 0x00 (0000ms, 1871ms total)
T3858 002:497 JLINK_WriteReg(R12, 0x00000000)  returns 0x00 (0000ms, 1871ms total)
T3858 002:497 JLINK_WriteReg(R13, 0x20001000)  returns 0x00 (0000ms, 1871ms total)
T3858 002:497 JLINK_WriteReg(R14, 0x20000001)  returns 0x00 (0000ms, 1871ms total)
T3858 002:497 JLINK_WriteReg(R15, 0x20000158)  returns 0x00 (0000ms, 1871ms total)
T3858 002:497 JLINK_WriteReg(XPSR, 0x01000000)  returns 0x00 (0000ms, 1871ms total)
T3858 002:497 JLINK_WriteReg(MSP, 0x20001000)  returns 0x00 (0000ms, 1871ms total)
T3858 002:497 JLINK_WriteReg(PSP, 0x20001000)  returns 0x00 (0000ms, 1871ms total)
T3858 002:497 JLINK_WriteReg(CFBP, 0x00000000)  returns 0x00 (0000ms, 1871ms total)
T3858 002:497 JLINK_SetBPEx(Addr = 0x20000000, Type = 0xFFFFFFF2)  returns 0x0000000F (0000ms, 1871ms total)
T3858 002:497 JLINK_Go() -- CPU_WriteMem(4 bytes @ 0xE0002008) -- CPU_WriteMem(4 bytes @ 0xE000200C) -- CPU_WriteMem(4 bytes @ 0xE0002010) -- CPU_WriteMem(4 bytes @ 0xE0002014) -- CPU_WriteMem(4 bytes @ 0xE0002018) -- CPU_WriteMem(4 bytes @ 0xE000201C) (0022ms, 1871ms total)
T3858 002:519 JLINK_IsHalted()  returns FALSE (0003ms, 1893ms total)
T3858 002:552 JLINK_IsHalted() -- CPU_ReadMem(2 bytes @ 0x20000000)  returns TRUE (0013ms, 1893ms total)
T3858 002:565 JLINK_ReadReg(R15)  returns 0x20000000 (0000ms, 1893ms total)
T3858 002:565 JLINK_ClrBPEx(BPHandle = 0x0000000F)  returns 0x00 (0000ms, 1893ms total)
T3858 002:565 JLINK_ReadReg(R0)  returns 0x00000000 (0001ms, 1893ms total)
T3858 002:566 JLINK_WriteMem(0x200001D0, 0x0400 Bytes, ...) -- Data:  46 1C B0 B2 08 B1 20 69 10 B9 04 20 BD E8 F0 81 ... -- CPU_WriteMem(1024 bytes @ 0x200001D0)  returns 0x400 (0026ms, 1894ms total)
T3858 002:592 JLINK_WriteReg(R0, 0x08022800)  returns 0x00 (0000ms, 1920ms total)
T3858 002:592 JLINK_WriteReg(R1, 0x00000400)  returns 0x00 (0000ms, 1920ms total)
T3858 002:592 JLINK_WriteReg(R2, 0x200001D0)  returns 0x00 (0000ms, 1920ms total)
T3858 002:592 JLINK_WriteReg(R3, 0x00000000)  returns 0x00 (0000ms, 1920ms total)
T3858 002:592 JLINK_WriteReg(R4, 0x00000000)  returns 0x00 (0000ms, 1920ms total)
T3858 002:592 JLINK_WriteReg(R5, 0x00000000)  returns 0x00 (0000ms, 1920ms total)
T3858 002:592 JLINK_WriteReg(R6, 0x00000000)  returns 0x00 (0000ms, 1920ms total)
T3858 002:592 JLINK_WriteReg(R7, 0x00000000)  returns 0x00 (0000ms, 1920ms total)
T3858 002:592 JLINK_WriteReg(R8, 0x00000000)  returns 0x00 (0000ms, 1920ms total)
T3858 002:592 JLINK_WriteReg(R9, 0x200001CC)  returns 0x00 (0000ms, 1920ms total)
T3858 002:592 JLINK_WriteReg(R10, 0x00000000)  returns 0x00 (0000ms, 1920ms total)
T3858 002:592 JLINK_WriteReg(R11, 0x00000000)  returns 0x00 (0000ms, 1920ms total)
T3858 002:592 JLINK_WriteReg(R12, 0x00000000)  returns 0x00 (0000ms, 1920ms total)
T3858 002:592 JLINK_WriteReg(R13, 0x20001000)  returns 0x00 (0000ms, 1920ms total)
T3858 002:592 JLINK_WriteReg(R14, 0x20000001)  returns 0x00 (0000ms, 1920ms total)
T3858 002:592 JLINK_WriteReg(R15, 0x20000158)  returns 0x00 (0000ms, 1920ms total)
T3858 002:592 JLINK_WriteReg(XPSR, 0x01000000)  returns 0x00 (0000ms, 1920ms total)
T3858 002:592 JLINK_WriteReg(MSP, 0x20001000)  returns 0x00 (0000ms, 1920ms total)
T3858 002:592 JLINK_WriteReg(PSP, 0x20001000)  returns 0x00 (0000ms, 1920ms total)
T3858 002:592 JLINK_WriteReg(CFBP, 0x00000000)  returns 0x00 (0000ms, 1920ms total)
T3858 002:592 JLINK_SetBPEx(Addr = 0x20000000, Type = 0xFFFFFFF2)  returns 0x00000010 (0000ms, 1920ms total)
